T389C 243:088 SEGGER J-Link V6.50 Log File (0000ms, 3551ms total)
T389C 243:088 DLL Compiled: Aug 16 2019 14:30:54 (0000ms, 3551ms total)
T389C 243:088 Logging started @ 2020-01-15 07:23 (0000ms, 3551ms total)
T389C 243:088 JLINK_SetWarnOutHandler(...) (0000ms, 3551ms total)
T389C 243:088 JLINK_OpenEx(...)
Firmware: J-Link EDU Mini V1 compiled Aug 12 2019 10:38:48
Hardware: V1.00
S/N: 801012118
Feature(s): FlashBP, GDB
TELNET listener socket opened on port 19021WEBSRV 
Starting webserver (0045ms, 3596ms total)
T389C 243:088 WEBSRV Webserver running on local port 19080 (0045ms, 3596ms total)
T389C 243:088   returns O.K. (0045ms, 3596ms total)
T389C 243:133 JLINK_GetEmuCaps()  returns 0xB8EA5A33 (0000ms, 3596ms total)
T389C 243:134 JLINK_TIF_GetAvailable(...) (0000ms, 3596ms total)
T389C 243:134 JLINK_SetErrorOutHandler(...) (0000ms, 3596ms total)
T389C 243:134 JLINK_ExecCommand("ProjectFile = "C:\Users\simon\Documents\STM32\P5_Debug\MDK-ARM\JLinkSettings.ini"", ...).   returns 0x00 (0002ms, 3598ms total)
T389C 243:139 JLINK_ExecCommand("Device = STM32F412RETx", ...). Device "STM32F412RE" selected.  returns 0x00 (0010ms, 3608ms total)
T389C 243:149 JLINK_ExecCommand("DisableConnectionTimeout", ...).   returns 0x01 (0000ms, 3608ms total)
T389C 243:149 JLINK_GetHardwareVersion()  returns 0x2710 (0000ms, 3608ms total)
T389C 243:149 JLINK_GetDLLVersion()  returns 65000 (0000ms, 3608ms total)
T389C 243:149 JLINK_GetFirmwareString(...) (0000ms, 3608ms total)
T389C 243:158 JLINK_GetDLLVersion()  returns 65000 (0000ms, 3608ms total)
T389C 243:158 JLINK_GetCompileDateTime() (0000ms, 3608ms total)
T389C 243:160 JLINK_GetFirmwareString(...) (0000ms, 3608ms total)
T389C 243:163 JLINK_GetHardwareVersion()  returns 0x2710 (0000ms, 3608ms total)
T389C 243:173 JLINK_TIF_Select(JLINKARM_TIF_SWD)  returns 0x00 (0001ms, 3609ms total)
T389C 243:174 JLINK_SetSpeed(5000) (0000ms, 3609ms total)
T389C 243:174 JLINK_GetId() >0x10B TIF>Found SW-DP with ID 0x2BA01477 >0x0D TIF> >0x28 TIF> >0x0D TIF> >0x28 TIF> >0x0D TIF> >0x28 TIF> >0x0D TIF> >0x28 TIF> >0x0D TIF> >0x21 TIF> >0x0D TIF> >0x28 TIF> >0x0D TIF> >0x28 TIF> >0x0D TIF> >0x28 TIF> >0x0D TIF> >0x21 TIF> >0x0D TIF> >0x21 TIF> >0x0D TIF> >0x28 TIF> >0x0D TIF> >0x21 TIF> >0x0D TIF> >0x21 TIF> >0x0D TIF> >0x28 TIF> >0x0D TIF> >0x28 TIF> >0x0D TIF> >0x28 TIF> >0x0D TIF> >0x21 TIF> >0x0D TIF> >0x21 TIF> >0x0D TIF> >0x28 TIF> >0x0D TIF> >0x28 TIF>
 >0x0D TIF> >0x28 TIF> >0x0D TIF> >0x21 TIF> >0x0D TIF> >0x21 TIF> >0x0D TIF> >0x28 TIF> >0x0D TIF> >0x21 TIF> >0x0D TIF> >0x21 TIF> >0x0D TIF> >0x28 TIF> >0x0D TIF> >0x21 TIF> >0x0D TIF> >0x21 TIF> >0x10B TIF>Found SW-DP with ID 0x2BA01477 >0x0D TIF> >0x28 TIF> >0x0D TIF> >0x28 TIF> >0x0D TIF> >0x28 TIF> >0x0D TIF> >0x28 TIF> >0x0D TIF> >0x21 TIF> >0x0D TIF> >0x28 TIF>Scanning AP map to find all available APs >0x0D TIF> >0x28 TIF> >0x0D TIF> >0x21 TIF> >0x0D TIF> >0x21 TIF> >0x0D TIF> >0x28 TIF>
 >0x0D TIF> >0x21 TIF> >0x0D TIF> >0x21 TIF>AP[1]: Stopped AP scan as end of AP map has been reachedAP[0]: AHB-AP (IDR: 0x24770011)Iterating through AP map to find AHB-AP to use >0x42 TIF> >0x28 TIF> >0x0D TIF> >0x28 TIF> >0x0D TIF> >0x21 TIF> >0x0D TIF> >0x21 TIF> >0x42 TIF> >0x28 TIF> >0x0D TIF> >0x28 TIF> >0x0D TIF> >0x28 TIF> >0x0D TIF> >0x21 TIF> >0x0D TIF> >0x21 TIF>AP[0]: Core foundAP[0]: AHB-AP ROM base: 0xE00FF000 >0x0D TIF> >0x28 TIF> >0x0D TIF> >0x28 TIF> >0x0D TIF> >0x28 TIF> >0x0D TIF>
 >0x21 TIF> >0x0D TIF> >0x21 TIF>CPUID register: 0x410FC241. Implementer code: 0x41 (ARM)Found Cortex-M4 r0p1, Little endian. -- Max. mem block: 0x00001700 -- CPU_ReadMem(4 bytes @ 0xE000EDF0) -- CPU_WriteMem(4 bytes @ 0xE000EDF0) -- CPU_ReadMem(4 bytes @ 0xE0002000)FPUnit: 6 code (BP) slots and 2 literal slots -- CPU_ReadMem(4 bytes @ 0xE000EDFC) -- CPU_WriteMem(4 bytes @ 0xE000EDFC) -- CPU_ReadMem(4 bytes @ 0xE0001000) -- CPU_WriteMem(4 bytes @ 0xE0001000) -- CPU_ReadMem(4 bytes @ 0xE000ED88)
 -- CPU_WriteMem(4 bytes @ 0xE000ED88) -- CPU_ReadMem(4 bytes @ 0xE000ED88) -- CPU_WriteMem(4 bytes @ 0xE000ED88)CoreSight components:ROMTbl[0] @ E00FF000 -- CPU_ReadMem(16 bytes @ 0xE00FF000) -- CPU_ReadMem(16 bytes @ 0xE000EFF0) -- CPU_ReadMem(16 bytes @ 0xE000EFE0)ROMTbl[0][0]: E000E000, CID: B105E00D, PID: 000BB00C SCS-M7 -- CPU_ReadMem(16 bytes @ 0xE0001FF0) -- CPU_ReadMem(16 bytes @ 0xE0001FE0)ROMTbl[0][1]: E0001000, CID: B105E00D, PID: 003BB002 DWT -- CPU_ReadMem(16 bytes @ 0xE0002FF0)
 -- CPU_ReadMem(16 bytes @ 0xE0002FE0)ROMTbl[0][2]: E0002000, CID: B105E00D, PID: 002BB003 FPB -- CPU_ReadMem(16 bytes @ 0xE0000FF0) -- CPU_ReadMem(16 bytes @ 0xE0000FE0)ROMTbl[0][3]: E0000000, CID: B105E00D, PID: 003BB001 ITM -- CPU_ReadMem(16 bytes @ 0xE00FF010) -- CPU_ReadMem(16 bytes @ 0xE0040FF0) -- CPU_ReadMem(16 bytes @ 0xE0040FE0)ROMTbl[0][4]: E0040000, CID: B105900D, PID: 000BB9A1 TPIU -- CPU_ReadMem(16 bytes @ 0xE0041FF0) -- CPU_ReadMem(16 bytes @ 0xE0041FE0)
ROMTbl[0][5]: E0041000, CID: B105900D, PID: 000BB925 ETM >0x0D TIF> >0x21 TIF>  returns 0x2BA01477 (0197ms, 3806ms total)
T389C 243:371 JLINK_GetDLLVersion()  returns 65000 (0000ms, 3806ms total)
T389C 243:371 JLINK_CORE_GetFound()  returns 0xE0000FF (0000ms, 3806ms total)
T389C 243:371 JLINK_GetDebugInfo(0x100 = JLINKARM_ROM_TABLE_ADDR_INDEX) -- Value=0xE00FF000  returns 0x00 (0000ms, 3806ms total)
T389C 243:373 JLINK_GetDebugInfo(0x100 = JLINKARM_ROM_TABLE_ADDR_INDEX) -- Value=0xE00FF000  returns 0x00 (0000ms, 3806ms total)
T389C 243:373 JLINK_GetDebugInfo(0x101 = JLINKARM_DEBUG_INFO_ETM_ADDR_INDEX) -- Value=0xE0041000  returns 0x00 (0000ms, 3806ms total)
T389C 243:373 JLINK_ReadMemEx(0xE0041FD0, 0x0020 Bytes, ..., Flags = 0x02000004) -- CPU_ReadMem(32 bytes @ 0xE0041FD0) - Data: 04 00 00 00 00 00 00 00 00 00 00 00 00 00 00 00 ...  returns 0x20 (0001ms, 3807ms total)
T389C 243:374 JLINK_GetDebugInfo(0x102 = JLINKARM_DEBUG_INFO_MTB_ADDR_INDEX) -- Value=0x00000000  returns 0x00 (0000ms, 3807ms total)
T389C 243:374 JLINK_GetDebugInfo(0x103 = JLINKARM_DEBUG_INFO_TPIU_ADDR_INDEX) -- Value=0xE0040000  returns 0x00 (0000ms, 3807ms total)
T389C 243:374 JLINK_GetDebugInfo(0x104 = JLINKARM_DEBUG_INFO_ITM_ADDR_INDEX) -- Value=0xE0000000  returns 0x00 (0000ms, 3807ms total)
T389C 243:374 JLINK_GetDebugInfo(0x105 = JLINKARM_DEBUG_INFO_DWT_ADDR_INDEX) -- Value=0xE0001000  returns 0x00 (0000ms, 3807ms total)
T389C 243:374 JLINK_GetDebugInfo(0x106 = JLINKARM_DEBUG_INFO_FPB_ADDR_INDEX) -- Value=0xE0002000  returns 0x00 (0000ms, 3807ms total)
T389C 243:374 JLINK_GetDebugInfo(0x107 = JLINKARM_DEBUG_INFO_NVIC_ADDR_INDEX) -- Value=0xE000E000  returns 0x00 (0000ms, 3807ms total)
T389C 243:374 JLINK_GetDebugInfo(0x10C = JLINKARM_DEBUG_INFO_DBG_ADDR_INDEX) -- Value=0xE000EDF0  returns 0x00 (0000ms, 3807ms total)
T389C 243:374 JLINK_GetDebugInfo(0x01 = Unknown) -- Value=0x00000001  returns 0x00 (0000ms, 3807ms total)
T389C 243:374 JLINK_ReadMemU32(0xE000ED00, 0x0001 Items, ...) -- CPU_ReadMem(4 bytes @ 0xE000ED00) - Data: 41 C2 0F 41  returns 1 (0000ms, 3807ms total)
T389C 243:374 JLINK_GetDebugInfo(0x10F = JLINKARM_DEBUG_INFO_HAS_CORTEX_M_SECURITY_EXT_INDEX) -- Value=0x00000000  returns 0x00 (0000ms, 3807ms total)
T389C 243:374 JLINK_SetResetType(JLINKARM_CM3_RESET_TYPE_NORMAL)  returns JLINKARM_CM3_RESET_TYPE_NORMAL (0001ms, 3808ms total)
T389C 243:375 JLINK_Reset() -- CPU is running -- CPU_WriteMem(4 bytes @ 0xE000EDF0) -- CPU is running -- CPU_WriteMem(4 bytes @ 0xE000EDFC)Reset: Halt core after reset via DEMCR.VC_CORERESET. >0x35 TIF>Reset: Reset device via AIRCR.SYSRESETREQ. -- CPU is running -- CPU_WriteMem(4 bytes @ 0xE000ED0C) >0x0D TIF> >0x28 TIF> -- CPU_ReadMem(4 bytes @ 0xE000EDF0) -- CPU_ReadMem(4 bytes @ 0xE000EDF0) -- CPU is running -- CPU_WriteMem(4 bytes @ 0xE000EDF0) -- CPU is running -- CPU_WriteMem(4 bytes @ 0xE000EDFC)
 -- CPU_ReadMem(4 bytes @ 0xE000EDF0) -- CPU_WriteMem(4 bytes @ 0xE0002000) -- CPU_ReadMem(4 bytes @ 0xE000EDFC) -- CPU_ReadMem(4 bytes @ 0xE0001000) (0074ms, 3882ms total)
T389C 243:450 JLINK_Halt()  returns 0x00 (0000ms, 3883ms total)
T389C 243:450 JLINK_ReadMemU32(0xE000EDF0, 0x0001 Items, ...) -- CPU_ReadMem(4 bytes @ 0xE000EDF0) - Data: 03 00 03 00  returns 1 (0001ms, 3884ms total)
T389C 243:451 JLINK_WriteU32(0xE000EDF0, 0xA05F0003) -- CPU_WriteMem(4 bytes @ 0xE000EDF0)  returns 0 (0000ms, 3884ms total)
T389C 243:451 JLINK_WriteU32(0xE000EDFC, 0x01000000) -- CPU_WriteMem(4 bytes @ 0xE000EDFC)  returns 0 (0001ms, 3885ms total)
T389C 243:477 JLINK_GetHWStatus(...)  returns 0x00 (0000ms, 3885ms total)
T389C 243:486 JLINK_GetNumBPUnits(Type = 0xFFFFFF00)  returns 0x06 (0000ms, 3885ms total)
T389C 243:486 JLINK_GetNumBPUnits(Type = 0xF0)  returns 0x2000 (0000ms, 3885ms total)
T389C 243:486 JLINK_GetNumWPUnits()  returns 0x04 (0000ms, 3885ms total)
T389C 243:494 JLINK_GetSpeed()  returns 0xFA0 (0000ms, 3885ms total)
T389C 243:499 JLINK_ReadMemU32(0xE000E004, 0x0001 Items, ...) -- CPU_ReadMem(4 bytes @ 0xE000E004) - Data: 03 00 00 00  returns 1 (0001ms, 3886ms total)
T389C 243:500 JLINK_ReadMemU32(0xE000E004, 0x0001 Items, ...) -- CPU_ReadMem(4 bytes @ 0xE000E004) - Data: 03 00 00 00  returns 1 (0001ms, 3887ms total)
T389C 243:501 JLINK_WriteMemEx(0xE0001000, 0x001C Bytes, ..., Flags = 0x02000004) - Data: 01 00 00 00 00 00 00 00 00 00 00 00 00 00 00 00 ... -- CPU_WriteMem(28 bytes @ 0xE0001000)  returns 0x1C (0001ms, 3888ms total)
T389C 243:502 JLINK_Halt()  returns 0x00 (0000ms, 3888ms total)
T389C 243:502 JLINK_IsHalted()  returns TRUE (0000ms, 3888ms total)
T389C 243:505 JLINK_WriteMem(0x20000000, 0x0188 Bytes, ...) - Data: 00 BE 0A E0 0D 78 2D 06 68 40 08 24 40 00 00 D3 ... -- CPU_WriteMem(392 bytes @ 0x20000000)  returns 0x188 (0004ms, 3892ms total)
T389C 243:509 JLINK_WriteReg(R0, 0x08000000)  returns 0x00 (0000ms, 3892ms total)
T389C 243:509 JLINK_WriteReg(R1, 0x05F5E100)  returns 0x00 (0000ms, 3892ms total)
T389C 243:509 JLINK_WriteReg(R2, 0x00000001)  returns 0x00 (0000ms, 3892ms total)
T389C 243:509 JLINK_WriteReg(R3, 0x00000000)  returns 0x00 (0000ms, 3892ms total)
T389C 243:509 JLINK_WriteReg(R4, 0x00000000)  returns 0x00 (0000ms, 3892ms total)
T389C 243:509 JLINK_WriteReg(R5, 0x00000000)  returns 0x00 (0000ms, 3892ms total)
T389C 243:509 JLINK_WriteReg(R6, 0x00000000)  returns 0x00 (0000ms, 3892ms total)
T389C 243:509 JLINK_WriteReg(R7, 0x00000000)  returns 0x00 (0000ms, 3892ms total)
T389C 243:509 JLINK_WriteReg(R8, 0x00000000)  returns 0x00 (0000ms, 3892ms total)
T389C 243:509 JLINK_WriteReg(R9, 0x20000184)  returns 0x00 (0000ms, 3892ms total)
T389C 243:509 JLINK_WriteReg(R10, 0x00000000)  returns 0x00 (0000ms, 3892ms total)
T389C 243:509 JLINK_WriteReg(R11, 0x00000000)  returns 0x00 (0000ms, 3892ms total)
T389C 243:509 JLINK_WriteReg(R12, 0x00000000)  returns 0x00 (0000ms, 3892ms total)
T389C 243:509 JLINK_WriteReg(R13 (SP), 0x20001000)  returns 0x00 (0000ms, 3892ms total)
T389C 243:509 JLINK_WriteReg(R14, 0x20000001)  returns 0x00 (0000ms, 3892ms total)
T389C 243:509 JLINK_WriteReg(R15 (PC), 0x2000005E)  returns 0x00 (0000ms, 3892ms total)
T389C 243:509 JLINK_WriteReg(XPSR, 0x01000000)  returns 0x00 (0000ms, 3892ms total)
T389C 243:509 JLINK_WriteReg(MSP, 0x20001000)  returns 0x00 (0000ms, 3892ms total)
T389C 243:509 JLINK_WriteReg(PSP, 0x20001000)  returns 0x00 (0000ms, 3892ms total)
T389C 243:509 JLINK_WriteReg(CFBP, 0x00000000)  returns 0x00 (0000ms, 3892ms total)
T389C 243:509 JLINK_SetBPEx(Addr = 0x20000000, Type = 0xFFFFFFF2) -- CPU_ReadMem(2 bytes @ 0x20000000)  returns 0x00000001 (0001ms, 3893ms total)
T389C 243:510 JLINK_Go() -- CPU_WriteMem(2 bytes @ 0x20000000) -- CPU_ReadMem(4 bytes @ 0xE0001000) -- CPU_WriteMem(4 bytes @ 0xE0002008) -- CPU_WriteMem(4 bytes @ 0xE000200C) -- CPU_WriteMem(4 bytes @ 0xE0002010) -- CPU_WriteMem(4 bytes @ 0xE0002014) -- CPU_WriteMem(4 bytes @ 0xE0002018) -- CPU_WriteMem(4 bytes @ 0xE000201C) -- CPU_WriteMem(4 bytes @ 0xE0001004) (0006ms, 3899ms total)
T389C 243:516 JLINK_IsHalted() -- CPU_ReadMem(2 bytes @ 0x20000000)  returns TRUE (0004ms, 3903ms total)
T389C 243:520 JLINK_ReadReg(R15 (PC))  returns 0x20000000 (0000ms, 3899ms total)
T389C 243:520 JLINK_ClrBPEx(BPHandle = 0x00000001)  returns 0x00 (0000ms, 3899ms total)
T389C 243:520 JLINK_ReadReg(R0)  returns 0x00000000 (0000ms, 3899ms total)
T389C 243:521 JLINK_WriteReg(R0, 0x08000000)  returns 0x00 (0000ms, 3899ms total)
T389C 243:521 JLINK_WriteReg(R1, 0x00004000)  returns 0x00 (0000ms, 3899ms total)
T389C 243:521 JLINK_WriteReg(R2, 0x000000FF)  returns 0x00 (0000ms, 3899ms total)
T389C 243:521 JLINK_WriteReg(R3, 0x00000000)  returns 0x00 (0000ms, 3899ms total)
T389C 243:521 JLINK_WriteReg(R4, 0x00000000)  returns 0x00 (0000ms, 3899ms total)
T389C 243:521 JLINK_WriteReg(R5, 0x00000000)  returns 0x00 (0000ms, 3899ms total)
T389C 243:521 JLINK_WriteReg(R6, 0x00000000)  returns 0x00 (0000ms, 3899ms total)
T389C 243:521 JLINK_WriteReg(R7, 0x00000000)  returns 0x00 (0000ms, 3899ms total)
T389C 243:521 JLINK_WriteReg(R8, 0x00000000)  returns 0x00 (0000ms, 3899ms total)
T389C 243:521 JLINK_WriteReg(R9, 0x20000184)  returns 0x00 (0000ms, 3899ms total)
T389C 243:521 JLINK_WriteReg(R10, 0x00000000)  returns 0x00 (0000ms, 3899ms total)
T389C 243:521 JLINK_WriteReg(R11, 0x00000000)  returns 0x00 (0000ms, 3899ms total)
T389C 243:521 JLINK_WriteReg(R12, 0x00000000)  returns 0x00 (0000ms, 3899ms total)
T389C 243:521 JLINK_WriteReg(R13 (SP), 0x20001000)  returns 0x00 (0000ms, 3899ms total)
T389C 243:521 JLINK_WriteReg(R14, 0x20000001)  returns 0x00 (0000ms, 3899ms total)
T389C 243:521 JLINK_WriteReg(R15 (PC), 0x20000020)  returns 0x00 (0000ms, 3899ms total)
T389C 243:521 JLINK_WriteReg(XPSR, 0x01000000)  returns 0x00 (0000ms, 3899ms total)
T389C 243:521 JLINK_WriteReg(MSP, 0x20001000)  returns 0x00 (0000ms, 3899ms total)
T389C 243:521 JLINK_WriteReg(PSP, 0x20001000)  returns 0x00 (0000ms, 3899ms total)
T389C 243:521 JLINK_WriteReg(CFBP, 0x00000000)  returns 0x00 (0000ms, 3899ms total)
T389C 243:521 JLINK_SetBPEx(Addr = 0x20000000, Type = 0xFFFFFFF2)  returns 0x00000002 (0001ms, 3900ms total)
T389C 243:522 JLINK_Go() -- CPU_ReadMem(4 bytes @ 0xE0001000) (0005ms, 3905ms total)
T389C 243:527 JLINK_IsHalted()  returns FALSE (0000ms, 3905ms total)
T389C 243:559 JLINK_IsHalted() -- CPU_ReadMem(2 bytes @ 0x20000000)  returns TRUE (0003ms, 3908ms total)
T389C 243:562 JLINK_ReadReg(R15 (PC))  returns 0x20000000 (0000ms, 3905ms total)
T389C 243:562 JLINK_ClrBPEx(BPHandle = 0x00000002)  returns 0x00 (0000ms, 3905ms total)
T389C 243:562 JLINK_ReadReg(R0)  returns 0x00000000 (0000ms, 3905ms total)
T389C 243:563 JLINK_WriteReg(R0, 0x08004000)  returns 0x00 (0000ms, 3905ms total)
T389C 243:563 JLINK_WriteReg(R1, 0x00004000)  returns 0x00 (0000ms, 3905ms total)
T389C 243:563 JLINK_WriteReg(R2, 0x000000FF)  returns 0x00 (0000ms, 3905ms total)
T389C 243:563 JLINK_WriteReg(R3, 0x00000000)  returns 0x00 (0000ms, 3905ms total)
T389C 243:563 JLINK_WriteReg(R4, 0x00000000)  returns 0x00 (0000ms, 3905ms total)
T389C 243:563 JLINK_WriteReg(R5, 0x00000000)  returns 0x00 (0000ms, 3905ms total)
T389C 243:563 JLINK_WriteReg(R6, 0x00000000)  returns 0x00 (0000ms, 3905ms total)
T389C 243:563 JLINK_WriteReg(R7, 0x00000000)  returns 0x00 (0000ms, 3905ms total)
T389C 243:563 JLINK_WriteReg(R8, 0x00000000)  returns 0x00 (0000ms, 3905ms total)
T389C 243:563 JLINK_WriteReg(R9, 0x20000184)  returns 0x00 (0000ms, 3905ms total)
T389C 243:563 JLINK_WriteReg(R10, 0x00000000)  returns 0x00 (0000ms, 3905ms total)
T389C 243:563 JLINK_WriteReg(R11, 0x00000000)  returns 0x00 (0000ms, 3905ms total)
T389C 243:563 JLINK_WriteReg(R12, 0x00000000)  returns 0x00 (0000ms, 3905ms total)
T389C 243:563 JLINK_WriteReg(R13 (SP), 0x20001000)  returns 0x00 (0001ms, 3906ms total)
T389C 243:564 JLINK_WriteReg(R14, 0x20000001)  returns 0x00 (0000ms, 3906ms total)
T389C 243:564 JLINK_WriteReg(R15 (PC), 0x20000020)  returns 0x00 (0000ms, 3906ms total)
T389C 243:564 JLINK_WriteReg(XPSR, 0x01000000)  returns 0x00 (0000ms, 3906ms total)
T389C 243:564 JLINK_WriteReg(MSP, 0x20001000)  returns 0x00 (0000ms, 3906ms total)
T389C 243:564 JLINK_WriteReg(PSP, 0x20001000)  returns 0x00 (0000ms, 3906ms total)
T389C 243:564 JLINK_WriteReg(CFBP, 0x00000000)  returns 0x00 (0000ms, 3906ms total)
T389C 243:564 JLINK_SetBPEx(Addr = 0x20000000, Type = 0xFFFFFFF2)  returns 0x00000003 (0000ms, 3906ms total)
T389C 243:564 JLINK_Go() -- CPU_ReadMem(4 bytes @ 0xE0001000) (0004ms, 3910ms total)
T389C 243:568 JLINK_IsHalted()  returns FALSE (0000ms, 3910ms total)
T389C 243:570 JLINK_IsHalted()  returns FALSE (0001ms, 3911ms total)
T389C 243:572 JLINK_IsHalted()  returns FALSE (0001ms, 3911ms total)
T389C 243:574 JLINK_IsHalted()  returns FALSE (0001ms, 3911ms total)
T389C 243:576 JLINK_IsHalted()  returns FALSE (0001ms, 3911ms total)
T389C 243:578 JLINK_IsHalted()  returns FALSE (0000ms, 3910ms total)
T389C 243:581 JLINK_IsHalted()  returns FALSE (0001ms, 3911ms total)
T389C 243:583 JLINK_IsHalted() -- CPU_ReadMem(2 bytes @ 0x20000000)  returns TRUE (0004ms, 3914ms total)
T389C 243:587 JLINK_ReadReg(R15 (PC))  returns 0x20000000 (0000ms, 3910ms total)
T389C 243:587 JLINK_ClrBPEx(BPHandle = 0x00000003)  returns 0x00 (0000ms, 3910ms total)
T389C 243:587 JLINK_ReadReg(R0)  returns 0x00000000 (0000ms, 3910ms total)
T389C 243:587 JLINK_WriteReg(R0, 0x00000001)  returns 0x00 (0000ms, 3910ms total)
T389C 243:587 JLINK_WriteReg(R1, 0x00004000)  returns 0x00 (0001ms, 3911ms total)
T389C 243:588 JLINK_WriteReg(R2, 0x000000FF)  returns 0x00 (0000ms, 3911ms total)
T389C 243:588 JLINK_WriteReg(R3, 0x00000000)  returns 0x00 (0000ms, 3911ms total)
T389C 243:588 JLINK_WriteReg(R4, 0x00000000)  returns 0x00 (0000ms, 3911ms total)
T389C 243:588 JLINK_WriteReg(R5, 0x00000000)  returns 0x00 (0000ms, 3911ms total)
T389C 243:588 JLINK_WriteReg(R6, 0x00000000)  returns 0x00 (0000ms, 3911ms total)
T389C 243:588 JLINK_WriteReg(R7, 0x00000000)  returns 0x00 (0000ms, 3911ms total)
T389C 243:588 JLINK_WriteReg(R8, 0x00000000)  returns 0x00 (0000ms, 3911ms total)
T389C 243:588 JLINK_WriteReg(R9, 0x20000184)  returns 0x00 (0000ms, 3911ms total)
T389C 243:588 JLINK_WriteReg(R10, 0x00000000)  returns 0x00 (0000ms, 3911ms total)
T389C 243:588 JLINK_WriteReg(R11, 0x00000000)  returns 0x00 (0000ms, 3911ms total)
T389C 243:588 JLINK_WriteReg(R12, 0x00000000)  returns 0x00 (0000ms, 3911ms total)
T389C 243:588 JLINK_WriteReg(R13 (SP), 0x20001000)  returns 0x00 (0000ms, 3911ms total)
T389C 243:588 JLINK_WriteReg(R14, 0x20000001)  returns 0x00 (0000ms, 3911ms total)
T389C 243:588 JLINK_WriteReg(R15 (PC), 0x2000008C)  returns 0x00 (0000ms, 3911ms total)
T389C 243:588 JLINK_WriteReg(XPSR, 0x01000000)  returns 0x00 (0000ms, 3911ms total)
T389C 243:588 JLINK_WriteReg(MSP, 0x20001000)  returns 0x00 (0000ms, 3911ms total)
T389C 243:588 JLINK_WriteReg(PSP, 0x20001000)  returns 0x00 (0000ms, 3911ms total)
T389C 243:588 JLINK_WriteReg(CFBP, 0x00000000)  returns 0x00 (0000ms, 3911ms total)
T389C 243:588 JLINK_SetBPEx(Addr = 0x20000000, Type = 0xFFFFFFF2)  returns 0x00000004 (0000ms, 3911ms total)
T389C 243:588 JLINK_Go() -- CPU_ReadMem(4 bytes @ 0xE0001000) (0004ms, 3915ms total)
T389C 243:592 JLINK_IsHalted() -- CPU_ReadMem(2 bytes @ 0x20000000)  returns TRUE (0003ms, 3918ms total)
T389C 243:595 JLINK_ReadReg(R15 (PC))  returns 0x20000000 (0000ms, 3915ms total)
T389C 243:595 JLINK_ClrBPEx(BPHandle = 0x00000004)  returns 0x00 (0001ms, 3916ms total)
T389C 243:596 JLINK_ReadReg(R0)  returns 0x00000000 (0000ms, 3916ms total)
T389C 243:653 JLINK_WriteMem(0x20000000, 0x0188 Bytes, ...) - Data: 00 BE 0A E0 0D 78 2D 06 68 40 08 24 40 00 00 D3 ... -- CPU_WriteMem(392 bytes @ 0x20000000)  returns 0x188 (0003ms, 3919ms total)
T389C 243:656 JLINK_WriteReg(R0, 0x08000000)  returns 0x00 (0000ms, 3919ms total)
T389C 243:656 JLINK_WriteReg(R1, 0x05F5E100)  returns 0x00 (0000ms, 3919ms total)
T389C 243:656 JLINK_WriteReg(R2, 0x00000002)  returns 0x00 (0000ms, 3919ms total)
T389C 243:656 JLINK_WriteReg(R3, 0x00000000)  returns 0x00 (0000ms, 3919ms total)
T389C 243:656 JLINK_WriteReg(R4, 0x00000000)  returns 0x00 (0000ms, 3919ms total)
T389C 243:656 JLINK_WriteReg(R5, 0x00000000)  returns 0x00 (0000ms, 3919ms total)
T389C 243:656 JLINK_WriteReg(R6, 0x00000000)  returns 0x00 (0000ms, 3919ms total)
T389C 243:656 JLINK_WriteReg(R7, 0x00000000)  returns 0x00 (0000ms, 3919ms total)
T389C 243:656 JLINK_WriteReg(R8, 0x00000000)  returns 0x00 (0000ms, 3919ms total)
T389C 243:656 JLINK_WriteReg(R9, 0x20000184)  returns 0x00 (0000ms, 3919ms total)
T389C 243:656 JLINK_WriteReg(R10, 0x00000000)  returns 0x00 (0000ms, 3919ms total)
T389C 243:656 JLINK_WriteReg(R11, 0x00000000)  returns 0x00 (0000ms, 3919ms total)
T389C 243:656 JLINK_WriteReg(R12, 0x00000000)  returns 0x00 (0000ms, 3919ms total)
T389C 243:656 JLINK_WriteReg(R13 (SP), 0x20001000)  returns 0x00 (0000ms, 3919ms total)
T389C 243:656 JLINK_WriteReg(R14, 0x20000001)  returns 0x00 (0000ms, 3919ms total)
T389C 243:656 JLINK_WriteReg(R15 (PC), 0x2000005E)  returns 0x00 (0000ms, 3919ms total)
T389C 243:656 JLINK_WriteReg(XPSR, 0x01000000)  returns 0x00 (0000ms, 3919ms total)
T389C 243:656 JLINK_WriteReg(MSP, 0x20001000)  returns 0x00 (0000ms, 3919ms total)
T389C 243:656 JLINK_WriteReg(PSP, 0x20001000)  returns 0x00 (0000ms, 3919ms total)
T389C 243:656 JLINK_WriteReg(CFBP, 0x00000000)  returns 0x00 (0000ms, 3919ms total)
T389C 243:656 JLINK_SetBPEx(Addr = 0x20000000, Type = 0xFFFFFFF2) -- CPU_ReadMem(2 bytes @ 0x20000000)  returns 0x00000005 (0001ms, 3920ms total)
T389C 243:657 JLINK_Go() -- CPU_WriteMem(2 bytes @ 0x20000000) -- CPU_ReadMem(4 bytes @ 0xE0001000) (0004ms, 3924ms total)
T389C 243:661 JLINK_IsHalted() -- CPU_ReadMem(2 bytes @ 0x20000000)  returns TRUE (0004ms, 3928ms total)
T389C 243:665 JLINK_ReadReg(R15 (PC))  returns 0x20000000 (0000ms, 3924ms total)
T389C 243:665 JLINK_ClrBPEx(BPHandle = 0x00000005)  returns 0x00 (0000ms, 3924ms total)
T389C 243:665 JLINK_ReadReg(R0)  returns 0x00000000 (0000ms, 3924ms total)
T389C 243:665 JLINK_WriteMem(0x20000188, 0x0278 Bytes, ...) - Data: 98 26 00 20 D9 01 00 08 37 3B 00 08 47 33 00 08 ... -- CPU_WriteMem(632 bytes @ 0x20000188)  returns 0x278 (0003ms, 3927ms total)
T389C 243:668 JLINK_WriteMem(0x20000400, 0x0188 Bytes, ...) - Data: 19 46 FF F7 F0 FF 20 46 10 BD 00 F0 00 42 30 F0 ... -- CPU_WriteMem(392 bytes @ 0x20000400)  returns 0x188 (0004ms, 3931ms total)
T389C 243:672 JLINK_WriteReg(R0, 0x08000000)  returns 0x00 (0000ms, 3931ms total)
T389C 243:672 JLINK_WriteReg(R1, 0x00000400)  returns 0x00 (0000ms, 3931ms total)
T389C 243:672 JLINK_WriteReg(R2, 0x20000188)  returns 0x00 (0000ms, 3931ms total)
T389C 243:672 JLINK_WriteReg(R3, 0x00000000)  returns 0x00 (0000ms, 3931ms total)
T389C 243:672 JLINK_WriteReg(R4, 0x00000000)  returns 0x00 (0000ms, 3931ms total)
T389C 243:672 JLINK_WriteReg(R5, 0x00000000)  returns 0x00 (0000ms, 3931ms total)
T389C 243:672 JLINK_WriteReg(R6, 0x00000000)  returns 0x00 (0000ms, 3931ms total)
T389C 243:672 JLINK_WriteReg(R7, 0x00000000)  returns 0x00 (0000ms, 3931ms total)
T389C 243:672 JLINK_WriteReg(R8, 0x00000000)  returns 0x00 (0000ms, 3931ms total)
T389C 243:672 JLINK_WriteReg(R9, 0x20000184)  returns 0x00 (0000ms, 3931ms total)
T389C 243:672 JLINK_WriteReg(R10, 0x00000000)  returns 0x00 (0000ms, 3931ms total)
T389C 243:672 JLINK_WriteReg(R11, 0x00000000)  returns 0x00 (0000ms, 3931ms total)
T389C 243:672 JLINK_WriteReg(R12, 0x00000000)  returns 0x00 (0000ms, 3931ms total)
T389C 243:672 JLINK_WriteReg(R13 (SP), 0x20001000)  returns 0x00 (0000ms, 3931ms total)
T389C 243:672 JLINK_WriteReg(R14, 0x20000001)  returns 0x00 (0000ms, 3931ms total)
T389C 243:672 JLINK_WriteReg(R15 (PC), 0x20000112)  returns 0x00 (0000ms, 3931ms total)
T389C 243:672 JLINK_WriteReg(XPSR, 0x01000000)  returns 0x00 (0000ms, 3931ms total)
T389C 243:672 JLINK_WriteReg(MSP, 0x20001000)  returns 0x00 (0001ms, 3932ms total)
T389C 243:673 JLINK_WriteReg(PSP, 0x20001000)  returns 0x00 (0000ms, 3932ms total)
T389C 243:673 JLINK_WriteReg(CFBP, 0x00000000)  returns 0x00 (0000ms, 3932ms total)
T389C 243:673 JLINK_SetBPEx(Addr = 0x20000000, Type = 0xFFFFFFF2)  returns 0x00000006 (0000ms, 3932ms total)
T389C 243:673 JLINK_Go() -- CPU_ReadMem(4 bytes @ 0xE0001000) (0005ms, 3937ms total)
T389C 243:678 JLINK_IsHalted()  returns FALSE (0000ms, 3937ms total)
T389C 243:684 JLINK_IsHalted() -- CPU_ReadMem(2 bytes @ 0x20000000)  returns TRUE (0004ms, 3941ms total)
T389C 243:688 JLINK_ReadReg(R15 (PC))  returns 0x20000000 (0000ms, 3937ms total)
T389C 243:688 JLINK_ClrBPEx(BPHandle = 0x00000006)  returns 0x00 (0000ms, 3937ms total)
T389C 243:688 JLINK_ReadReg(R0)  returns 0x00000000 (0000ms, 3937ms total)
T389C 243:688 JLINK_WriteMem(0x20000188, 0x0278 Bytes, ...) - Data: 6D 08 4F EA 36 06 45 EA C0 75 4F EA 07 52 00 1B ... -- CPU_WriteMem(632 bytes @ 0x20000188)  returns 0x278 (0005ms, 3942ms total)
T389C 243:693 JLINK_WriteMem(0x20000400, 0x0188 Bytes, ...) - Data: 63 EB 04 03 99 42 08 BF 90 42 30 BD 06 4C 07 4D ... -- CPU_WriteMem(392 bytes @ 0x20000400)  returns 0x188 (0003ms, 3945ms total)
T389C 243:696 JLINK_WriteReg(R0, 0x08000400)  returns 0x00 (0000ms, 3945ms total)
T389C 243:696 JLINK_WriteReg(R1, 0x00000400)  returns 0x00 (0000ms, 3945ms total)
T389C 243:696 JLINK_WriteReg(R2, 0x20000188)  returns 0x00 (0000ms, 3945ms total)
T389C 243:696 JLINK_WriteReg(R3, 0x00000000)  returns 0x00 (0000ms, 3945ms total)
T389C 243:696 JLINK_WriteReg(R4, 0x00000000)  returns 0x00 (0000ms, 3945ms total)
T389C 243:696 JLINK_WriteReg(R5, 0x00000000)  returns 0x00 (0000ms, 3945ms total)
T389C 243:696 JLINK_WriteReg(R6, 0x00000000)  returns 0x00 (0000ms, 3945ms total)
T389C 243:696 JLINK_WriteReg(R7, 0x00000000)  returns 0x00 (0000ms, 3945ms total)
T389C 243:696 JLINK_WriteReg(R8, 0x00000000)  returns 0x00 (0000ms, 3945ms total)
T389C 243:696 JLINK_WriteReg(R9, 0x20000184)  returns 0x00 (0000ms, 3945ms total)
T389C 243:696 JLINK_WriteReg(R10, 0x00000000)  returns 0x00 (0000ms, 3945ms total)
T389C 243:696 JLINK_WriteReg(R11, 0x00000000)  returns 0x00 (0000ms, 3945ms total)
T389C 243:696 JLINK_WriteReg(R12, 0x00000000)  returns 0x00 (0000ms, 3945ms total)
T389C 243:696 JLINK_WriteReg(R13 (SP), 0x20001000)  returns 0x00 (0000ms, 3945ms total)
T389C 243:696 JLINK_WriteReg(R14, 0x20000001)  returns 0x00 (0000ms, 3945ms total)
T389C 243:696 JLINK_WriteReg(R15 (PC), 0x20000112)  returns 0x00 (0000ms, 3945ms total)
T389C 243:696 JLINK_WriteReg(XPSR, 0x01000000)  returns 0x00 (0000ms, 3945ms total)
T389C 243:696 JLINK_WriteReg(MSP, 0x20001000)  returns 0x00 (0000ms, 3945ms total)
T389C 243:696 JLINK_WriteReg(PSP, 0x20001000)  returns 0x00 (0000ms, 3945ms total)
T389C 243:696 JLINK_WriteReg(CFBP, 0x00000000)  returns 0x00 (0000ms, 3945ms total)
T389C 243:697 JLINK_SetBPEx(Addr = 0x20000000, Type = 0xFFFFFFF2)  returns 0x00000007 (0000ms, 3946ms total)
T389C 243:697 JLINK_Go() -- CPU_ReadMem(4 bytes @ 0xE0001000) (0003ms, 3949ms total)
T389C 243:700 JLINK_IsHalted()  returns FALSE (0001ms, 3950ms total)
T389C 243:705 JLINK_IsHalted() -- CPU_ReadMem(2 bytes @ 0x20000000)  returns TRUE (0004ms, 3953ms total)
T389C 243:709 JLINK_ReadReg(R15 (PC))  returns 0x20000000 (0000ms, 3949ms total)
T389C 243:709 JLINK_ClrBPEx(BPHandle = 0x00000007)  returns 0x00 (0000ms, 3949ms total)
T389C 243:709 JLINK_ReadReg(R0)  returns 0x00000000 (0000ms, 3949ms total)
T389C 243:709 JLINK_WriteMem(0x20000188, 0x0278 Bytes, ...) - Data: 8C 69 CE F8 18 40 CC 69 CE F8 1C 40 07 9C D0 ED ... -- CPU_WriteMem(632 bytes @ 0x20000188)  returns 0x278 (0005ms, 3954ms total)
T389C 243:714 JLINK_WriteMem(0x20000400, 0x0188 Bytes, ...) - Data: 74 EE A9 4A 6F EE 04 1A 76 EE 8D 6A 75 EE A8 5A ... -- CPU_WriteMem(392 bytes @ 0x20000400)  returns 0x188 (0003ms, 3957ms total)
T389C 243:717 JLINK_WriteReg(R0, 0x08000800)  returns 0x00 (0000ms, 3957ms total)
T389C 243:717 JLINK_WriteReg(R1, 0x00000400)  returns 0x00 (0000ms, 3957ms total)
T389C 243:717 JLINK_WriteReg(R2, 0x20000188)  returns 0x00 (0000ms, 3957ms total)
T389C 243:717 JLINK_WriteReg(R3, 0x00000000)  returns 0x00 (0000ms, 3957ms total)
T389C 243:717 JLINK_WriteReg(R4, 0x00000000)  returns 0x00 (0000ms, 3957ms total)
T389C 243:717 JLINK_WriteReg(R5, 0x00000000)  returns 0x00 (0000ms, 3957ms total)
T389C 243:717 JLINK_WriteReg(R6, 0x00000000)  returns 0x00 (0000ms, 3957ms total)
T389C 243:717 JLINK_WriteReg(R7, 0x00000000)  returns 0x00 (0000ms, 3957ms total)
T389C 243:717 JLINK_WriteReg(R8, 0x00000000)  returns 0x00 (0000ms, 3957ms total)
T389C 243:717 JLINK_WriteReg(R9, 0x20000184)  returns 0x00 (0000ms, 3957ms total)
T389C 243:717 JLINK_WriteReg(R10, 0x00000000)  returns 0x00 (0000ms, 3957ms total)
T389C 243:717 JLINK_WriteReg(R11, 0x00000000)  returns 0x00 (0000ms, 3957ms total)
T389C 243:717 JLINK_WriteReg(R12, 0x00000000)  returns 0x00 (0000ms, 3957ms total)
T389C 243:717 JLINK_WriteReg(R13 (SP), 0x20001000)  returns 0x00 (0000ms, 3957ms total)
T389C 243:717 JLINK_WriteReg(R14, 0x20000001)  returns 0x00 (0000ms, 3957ms total)
T389C 243:717 JLINK_WriteReg(R15 (PC), 0x20000112)  returns 0x00 (0000ms, 3957ms total)
T389C 243:717 JLINK_WriteReg(XPSR, 0x01000000)  returns 0x00 (0000ms, 3957ms total)
T389C 243:717 JLINK_WriteReg(MSP, 0x20001000)  returns 0x00 (0000ms, 3957ms total)
T389C 243:717 JLINK_WriteReg(PSP, 0x20001000)  returns 0x00 (0000ms, 3957ms total)
T389C 243:717 JLINK_WriteReg(CFBP, 0x00000000)  returns 0x00 (0000ms, 3957ms total)
T389C 243:717 JLINK_SetBPEx(Addr = 0x20000000, Type = 0xFFFFFFF2)  returns 0x00000008 (0000ms, 3957ms total)
T389C 243:717 JLINK_Go() -- CPU_ReadMem(4 bytes @ 0xE0001000) (0005ms, 3962ms total)
T389C 243:722 JLINK_IsHalted()  returns FALSE (0000ms, 3962ms total)
T389C 243:725 JLINK_IsHalted()  returns FALSE (0001ms, 3963ms total)
T389C 243:727 JLINK_IsHalted() -- CPU_ReadMem(2 bytes @ 0x20000000)  returns TRUE (0004ms, 3966ms total)
T389C 243:731 JLINK_ReadReg(R15 (PC))  returns 0x20000000 (0000ms, 3962ms total)
T389C 243:731 JLINK_ClrBPEx(BPHandle = 0x00000008)  returns 0x00 (0000ms, 3962ms total)
T389C 243:731 JLINK_ReadReg(R0)  returns 0x00000000 (0000ms, 3962ms total)
T389C 243:731 JLINK_WriteMem(0x20000188, 0x0278 Bytes, ...) - Data: 03 9B 00 21 B1 EB 93 0F 14 D0 99 08 49 42 00 BF ... -- CPU_WriteMem(632 bytes @ 0x20000188)  returns 0x278 (0004ms, 3966ms total)
T389C 243:735 JLINK_WriteMem(0x20000400, 0x0188 Bytes, ...) - Data: 30 46 70 BD 18 00 00 20 24 04 00 40 24 08 00 40 ... -- CPU_WriteMem(392 bytes @ 0x20000400)  returns 0x188 (0004ms, 3970ms total)
T389C 243:739 JLINK_WriteReg(R0, 0x08000C00)  returns 0x00 (0000ms, 3970ms total)
T389C 243:739 JLINK_WriteReg(R1, 0x00000400)  returns 0x00 (0000ms, 3970ms total)
T389C 243:739 JLINK_WriteReg(R2, 0x20000188)  returns 0x00 (0000ms, 3970ms total)
T389C 243:739 JLINK_WriteReg(R3, 0x00000000)  returns 0x00 (0000ms, 3970ms total)
T389C 243:739 JLINK_WriteReg(R4, 0x00000000)  returns 0x00 (0000ms, 3970ms total)
T389C 243:739 JLINK_WriteReg(R5, 0x00000000)  returns 0x00 (0000ms, 3970ms total)
T389C 243:739 JLINK_WriteReg(R6, 0x00000000)  returns 0x00 (0000ms, 3970ms total)
T389C 243:739 JLINK_WriteReg(R7, 0x00000000)  returns 0x00 (0000ms, 3970ms total)
T389C 243:739 JLINK_WriteReg(R8, 0x00000000)  returns 0x00 (0000ms, 3970ms total)
T389C 243:739 JLINK_WriteReg(R9, 0x20000184)  returns 0x00 (0000ms, 3970ms total)
T389C 243:739 JLINK_WriteReg(R10, 0x00000000)  returns 0x00 (0000ms, 3970ms total)
T389C 243:739 JLINK_WriteReg(R11, 0x00000000)  returns 0x00 (0000ms, 3970ms total)
T389C 243:739 JLINK_WriteReg(R12, 0x00000000)  returns 0x00 (0000ms, 3970ms total)
T389C 243:739 JLINK_WriteReg(R13 (SP), 0x20001000)  returns 0x00 (0000ms, 3970ms total)
T389C 243:739 JLINK_WriteReg(R14, 0x20000001)  returns 0x00 (0000ms, 3970ms total)
T389C 243:739 JLINK_WriteReg(R15 (PC), 0x20000112)  returns 0x00 (0000ms, 3970ms total)
T389C 243:739 JLINK_WriteReg(XPSR, 0x01000000)  returns 0x00 (0000ms, 3970ms total)
T389C 243:739 JLINK_WriteReg(MSP, 0x20001000)  returns 0x00 (0000ms, 3970ms total)
T389C 243:739 JLINK_WriteReg(PSP, 0x20001000)  returns 0x00 (0000ms, 3970ms total)
T389C 243:739 JLINK_WriteReg(CFBP, 0x00000000)  returns 0x00 (0000ms, 3970ms total)
T389C 243:739 JLINK_SetBPEx(Addr = 0x20000000, Type = 0xFFFFFFF2)  returns 0x00000009 (0000ms, 3970ms total)
T389C 243:739 JLINK_Go() -- CPU_ReadMem(4 bytes @ 0xE0001000) (0005ms, 3975ms total)
T389C 243:744 JLINK_IsHalted()  returns FALSE (0000ms, 3975ms total)
T389C 243:746 JLINK_IsHalted()  returns FALSE (0000ms, 3975ms total)
T389C 243:748 JLINK_IsHalted()  returns FALSE (0000ms, 3975ms total)
T389C 243:750 JLINK_IsHalted() -- CPU_ReadMem(2 bytes @ 0x20000000)  returns TRUE (0003ms, 3978ms total)
T389C 243:753 JLINK_ReadReg(R15 (PC))  returns 0x20000000 (0000ms, 3975ms total)
T389C 243:753 JLINK_ClrBPEx(BPHandle = 0x00000009)  returns 0x00 (0000ms, 3975ms total)
T389C 243:753 JLINK_ReadReg(R0)  returns 0x00000000 (0000ms, 3975ms total)
T389C 243:754 JLINK_WriteMem(0x20000188, 0x0278 Bytes, ...) - Data: 03 2A 09 D1 04 E0 1A B1 01 2A 06 D0 02 2A 03 D1 ... -- CPU_WriteMem(632 bytes @ 0x20000188)  returns 0x278 (0004ms, 3979ms total)
T389C 243:758 JLINK_WriteMem(0x20000400, 0x0188 Bytes, ...) - Data: 70 B5 16 46 08 4C 0A 46 1D 46 01 46 07 48 23 68 ... -- CPU_WriteMem(392 bytes @ 0x20000400)  returns 0x188 (0003ms, 3982ms total)
T389C 243:761 JLINK_WriteReg(R0, 0x08001000)  returns 0x00 (0000ms, 3982ms total)
T389C 243:761 JLINK_WriteReg(R1, 0x00000400)  returns 0x00 (0000ms, 3982ms total)
T389C 243:761 JLINK_WriteReg(R2, 0x20000188)  returns 0x00 (0000ms, 3982ms total)
T389C 243:761 JLINK_WriteReg(R3, 0x00000000)  returns 0x00 (0000ms, 3982ms total)
T389C 243:761 JLINK_WriteReg(R4, 0x00000000)  returns 0x00 (0000ms, 3982ms total)
T389C 243:761 JLINK_WriteReg(R5, 0x00000000)  returns 0x00 (0000ms, 3982ms total)
T389C 243:761 JLINK_WriteReg(R6, 0x00000000)  returns 0x00 (0000ms, 3982ms total)
T389C 243:761 JLINK_WriteReg(R7, 0x00000000)  returns 0x00 (0000ms, 3982ms total)
T389C 243:761 JLINK_WriteReg(R8, 0x00000000)  returns 0x00 (0000ms, 3982ms total)
T389C 243:761 JLINK_WriteReg(R9, 0x20000184)  returns 0x00 (0000ms, 3982ms total)
T389C 243:761 JLINK_WriteReg(R10, 0x00000000)  returns 0x00 (0000ms, 3982ms total)
T389C 243:761 JLINK_WriteReg(R11, 0x00000000)  returns 0x00 (0000ms, 3982ms total)
T389C 243:761 JLINK_WriteReg(R12, 0x00000000)  returns 0x00 (0000ms, 3982ms total)
T389C 243:761 JLINK_WriteReg(R13 (SP), 0x20001000)  returns 0x00 (0000ms, 3982ms total)
T389C 243:761 JLINK_WriteReg(R14, 0x20000001)  returns 0x00 (0000ms, 3982ms total)
T389C 243:761 JLINK_WriteReg(R15 (PC), 0x20000112)  returns 0x00 (0000ms, 3982ms total)
T389C 243:761 JLINK_WriteReg(XPSR, 0x01000000)  returns 0x00 (0000ms, 3982ms total)
T389C 243:761 JLINK_WriteReg(MSP, 0x20001000)  returns 0x00 (0000ms, 3982ms total)
T389C 243:761 JLINK_WriteReg(PSP, 0x20001000)  returns 0x00 (0000ms, 3982ms total)
T389C 243:762 JLINK_WriteReg(CFBP, 0x00000000)  returns 0x00 (0000ms, 3983ms total)
T389C 243:762 JLINK_SetBPEx(Addr = 0x20000000, Type = 0xFFFFFFF2)  returns 0x0000000A (0000ms, 3983ms total)
T389C 243:762 JLINK_Go() -- CPU_ReadMem(4 bytes @ 0xE0001000) (0004ms, 3987ms total)
T389C 243:766 JLINK_IsHalted()  returns FALSE (0000ms, 3987ms total)
T389C 243:768 JLINK_IsHalted()  returns FALSE (0000ms, 3987ms total)
T389C 243:770 JLINK_IsHalted()  returns FALSE (0000ms, 3987ms total)
T389C 243:772 JLINK_IsHalted() -- CPU_ReadMem(2 bytes @ 0x20000000)  returns TRUE (0003ms, 3990ms total)
T389C 243:775 JLINK_ReadReg(R15 (PC))  returns 0x20000000 (0000ms, 3987ms total)
T389C 243:775 JLINK_ClrBPEx(BPHandle = 0x0000000A)  returns 0x00 (0000ms, 3987ms total)
T389C 243:775 JLINK_ReadReg(R0)  returns 0x00000000 (0000ms, 3987ms total)
T389C 243:776 JLINK_WriteMem(0x20000188, 0x0278 Bytes, ...) - Data: 2A 43 1A 61 4A 68 1F 23 07 2A 13 D2 05 68 6E 6B ... -- CPU_WriteMem(632 bytes @ 0x20000188)  returns 0x278 (0004ms, 3991ms total)
T389C 243:780 JLINK_WriteMem(0x20000400, 0x0188 Bytes, ...) - Data: 20 4B 12 68 B2 FB F3 F2 02 EB 42 02 00 E0 52 1E ... -- CPU_WriteMem(392 bytes @ 0x20000400)  returns 0x188 (0003ms, 3994ms total)
T389C 243:783 JLINK_WriteReg(R0, 0x08001400)  returns 0x00 (0000ms, 3994ms total)
T389C 243:783 JLINK_WriteReg(R1, 0x00000400)  returns 0x00 (0000ms, 3994ms total)
T389C 243:783 JLINK_WriteReg(R2, 0x20000188)  returns 0x00 (0000ms, 3994ms total)
T389C 243:783 JLINK_WriteReg(R3, 0x00000000)  returns 0x00 (0000ms, 3994ms total)
T389C 243:783 JLINK_WriteReg(R4, 0x00000000)  returns 0x00 (0000ms, 3994ms total)
T389C 243:783 JLINK_WriteReg(R5, 0x00000000)  returns 0x00 (0000ms, 3994ms total)
T389C 243:783 JLINK_WriteReg(R6, 0x00000000)  returns 0x00 (0000ms, 3994ms total)
T389C 243:783 JLINK_WriteReg(R7, 0x00000000)  returns 0x00 (0000ms, 3994ms total)
T389C 243:783 JLINK_WriteReg(R8, 0x00000000)  returns 0x00 (0000ms, 3994ms total)
T389C 243:783 JLINK_WriteReg(R9, 0x20000184)  returns 0x00 (0000ms, 3994ms total)
T389C 243:783 JLINK_WriteReg(R10, 0x00000000)  returns 0x00 (0000ms, 3994ms total)
T389C 243:783 JLINK_WriteReg(R11, 0x00000000)  returns 0x00 (0000ms, 3994ms total)
T389C 243:783 JLINK_WriteReg(R12, 0x00000000)  returns 0x00 (0000ms, 3994ms total)
T389C 243:783 JLINK_WriteReg(R13 (SP), 0x20001000)  returns 0x00 (0000ms, 3994ms total)
T389C 243:783 JLINK_WriteReg(R14, 0x20000001)  returns 0x00 (0000ms, 3994ms total)
T389C 243:783 JLINK_WriteReg(R15 (PC), 0x20000112)  returns 0x00 (0000ms, 3994ms total)
T389C 243:783 JLINK_WriteReg(XPSR, 0x01000000)  returns 0x00 (0000ms, 3994ms total)
T389C 243:783 JLINK_WriteReg(MSP, 0x20001000)  returns 0x00 (0000ms, 3994ms total)
T389C 243:783 JLINK_WriteReg(PSP, 0x20001000)  returns 0x00 (0000ms, 3994ms total)
T389C 243:783 JLINK_WriteReg(CFBP, 0x00000000)  returns 0x00 (0000ms, 3994ms total)
T389C 243:783 JLINK_SetBPEx(Addr = 0x20000000, Type = 0xFFFFFFF2)  returns 0x0000000B (0001ms, 3995ms total)
T389C 243:784 JLINK_Go() -- CPU_ReadMem(4 bytes @ 0xE0001000) (0004ms, 3999ms total)
T389C 243:788 JLINK_IsHalted()  returns FALSE (0000ms, 3999ms total)
T389C 243:790 JLINK_IsHalted()  returns FALSE (0000ms, 3999ms total)
T389C 243:792 JLINK_IsHalted() -- CPU_ReadMem(2 bytes @ 0x20000000)  returns TRUE (0004ms, 4003ms total)
T389C 243:796 JLINK_ReadReg(R15 (PC))  returns 0x20000000 (0000ms, 3999ms total)
T389C 243:796 JLINK_ClrBPEx(BPHandle = 0x0000000B)  returns 0x00 (0000ms, 3999ms total)
T389C 243:796 JLINK_ReadReg(R0)  returns 0x00000000 (0000ms, 3999ms total)
T389C 243:797 JLINK_WriteMem(0x20000188, 0x0278 Bytes, ...) - Data: 1C E0 21 F0 16 01 01 60 20 68 41 69 21 F0 80 01 ... -- CPU_WriteMem(632 bytes @ 0x20000188)  returns 0x278 (0005ms, 4004ms total)
T389C 243:802 JLINK_WriteMem(0x20000400, 0x0188 Bytes, ...) - Data: B5 43 0E 69 BE 40 2E 43 CC F8 20 60 06 68 55 00 ... -- CPU_WriteMem(392 bytes @ 0x20000400)  returns 0x188 (0003ms, 4007ms total)
T389C 243:805 JLINK_WriteReg(R0, 0x08001800)  returns 0x00 (0000ms, 4007ms total)
T389C 243:805 JLINK_WriteReg(R1, 0x00000400)  returns 0x00 (0000ms, 4007ms total)
T389C 243:805 JLINK_WriteReg(R2, 0x20000188)  returns 0x00 (0000ms, 4007ms total)
T389C 243:805 JLINK_WriteReg(R3, 0x00000000)  returns 0x00 (0000ms, 4007ms total)
T389C 243:805 JLINK_WriteReg(R4, 0x00000000)  returns 0x00 (0000ms, 4007ms total)
T389C 243:805 JLINK_WriteReg(R5, 0x00000000)  returns 0x00 (0000ms, 4007ms total)
T389C 243:805 JLINK_WriteReg(R6, 0x00000000)  returns 0x00 (0000ms, 4007ms total)
T389C 243:805 JLINK_WriteReg(R7, 0x00000000)  returns 0x00 (0000ms, 4007ms total)
T389C 243:805 JLINK_WriteReg(R8, 0x00000000)  returns 0x00 (0000ms, 4007ms total)
T389C 243:805 JLINK_WriteReg(R9, 0x20000184)  returns 0x00 (0000ms, 4007ms total)
T389C 243:805 JLINK_WriteReg(R10, 0x00000000)  returns 0x00 (0000ms, 4007ms total)
T389C 243:805 JLINK_WriteReg(R11, 0x00000000)  returns 0x00 (0000ms, 4007ms total)
T389C 243:805 JLINK_WriteReg(R12, 0x00000000)  returns 0x00 (0000ms, 4007ms total)
T389C 243:805 JLINK_WriteReg(R13 (SP), 0x20001000)  returns 0x00 (0000ms, 4007ms total)
T389C 243:805 JLINK_WriteReg(R14, 0x20000001)  returns 0x00 (0000ms, 4007ms total)
T389C 243:805 JLINK_WriteReg(R15 (PC), 0x20000112)  returns 0x00 (0000ms, 4007ms total)
T389C 243:805 JLINK_WriteReg(XPSR, 0x01000000)  returns 0x00 (0000ms, 4007ms total)
T389C 243:805 JLINK_WriteReg(MSP, 0x20001000)  returns 0x00 (0000ms, 4007ms total)
T389C 243:806 JLINK_WriteReg(PSP, 0x20001000)  returns 0x00 (0000ms, 4007ms total)
T389C 243:806 JLINK_WriteReg(CFBP, 0x00000000)  returns 0x00 (0000ms, 4007ms total)
T389C 243:806 JLINK_SetBPEx(Addr = 0x20000000, Type = 0xFFFFFFF2)  returns 0x0000000C (0000ms, 4007ms total)
T389C 243:806 JLINK_Go() -- CPU_ReadMem(4 bytes @ 0xE0001000) (0003ms, 4010ms total)
T389C 243:809 JLINK_IsHalted()  returns FALSE (0001ms, 4011ms total)
T389C 243:812 JLINK_IsHalted()  returns FALSE (0000ms, 4010ms total)
T389C 243:814 JLINK_IsHalted() -- CPU_ReadMem(2 bytes @ 0x20000000)  returns TRUE (0004ms, 4014ms total)
T389C 243:818 JLINK_ReadReg(R15 (PC))  returns 0x20000000 (0000ms, 4010ms total)
T389C 243:818 JLINK_ClrBPEx(BPHandle = 0x0000000C)  returns 0x00 (0000ms, 4010ms total)
T389C 243:818 JLINK_ReadReg(R0)  returns 0x00000000 (0000ms, 4010ms total)
T389C 243:818 JLINK_WriteMem(0x20000188, 0x0278 Bytes, ...) - Data: 91 42 01 D8 4C 49 00 E0 4C 49 88 42 01 D2 01 20 ... -- CPU_WriteMem(632 bytes @ 0x20000188)  returns 0x278 (0005ms, 4015ms total)
T389C 243:823 JLINK_WriteMem(0x20000400, 0x0188 Bytes, ...) - Data: 86 B0 04 46 14 21 68 46 FE F7 F4 F9 2B 4A 21 68 ... -- CPU_WriteMem(392 bytes @ 0x20000400)  returns 0x188 (0003ms, 4018ms total)
T389C 243:826 JLINK_WriteReg(R0, 0x08001C00)  returns 0x00 (0000ms, 4018ms total)
T389C 243:826 JLINK_WriteReg(R1, 0x00000400)  returns 0x00 (0000ms, 4018ms total)
T389C 243:826 JLINK_WriteReg(R2, 0x20000188)  returns 0x00 (0000ms, 4018ms total)
T389C 243:826 JLINK_WriteReg(R3, 0x00000000)  returns 0x00 (0000ms, 4018ms total)
T389C 243:826 JLINK_WriteReg(R4, 0x00000000)  returns 0x00 (0000ms, 4018ms total)
T389C 243:826 JLINK_WriteReg(R5, 0x00000000)  returns 0x00 (0000ms, 4018ms total)
T389C 243:826 JLINK_WriteReg(R6, 0x00000000)  returns 0x00 (0000ms, 4018ms total)
T389C 243:826 JLINK_WriteReg(R7, 0x00000000)  returns 0x00 (0000ms, 4018ms total)
T389C 243:826 JLINK_WriteReg(R8, 0x00000000)  returns 0x00 (0000ms, 4018ms total)
T389C 243:826 JLINK_WriteReg(R9, 0x20000184)  returns 0x00 (0000ms, 4018ms total)
T389C 243:826 JLINK_WriteReg(R10, 0x00000000)  returns 0x00 (0001ms, 4019ms total)
T389C 243:827 JLINK_WriteReg(R11, 0x00000000)  returns 0x00 (0000ms, 4019ms total)
T389C 243:827 JLINK_WriteReg(R12, 0x00000000)  returns 0x00 (0000ms, 4019ms total)
T389C 243:827 JLINK_WriteReg(R13 (SP), 0x20001000)  returns 0x00 (0000ms, 4019ms total)
T389C 243:827 JLINK_WriteReg(R14, 0x20000001)  returns 0x00 (0000ms, 4019ms total)
T389C 243:827 JLINK_WriteReg(R15 (PC), 0x20000112)  returns 0x00 (0000ms, 4019ms total)
T389C 243:827 JLINK_WriteReg(XPSR, 0x01000000)  returns 0x00 (0000ms, 4019ms total)
T389C 243:827 JLINK_WriteReg(MSP, 0x20001000)  returns 0x00 (0000ms, 4019ms total)
T389C 243:827 JLINK_WriteReg(PSP, 0x20001000)  returns 0x00 (0000ms, 4019ms total)
T389C 243:827 JLINK_WriteReg(CFBP, 0x00000000)  returns 0x00 (0000ms, 4019ms total)
T389C 243:827 JLINK_SetBPEx(Addr = 0x20000000, Type = 0xFFFFFFF2)  returns 0x0000000D (0000ms, 4019ms total)
T389C 243:827 JLINK_Go() -- CPU_ReadMem(4 bytes @ 0xE0001000) (0004ms, 4023ms total)
T389C 243:831 JLINK_IsHalted()  returns FALSE (0000ms, 4023ms total)
T389C 243:834 JLINK_IsHalted()  returns FALSE (0001ms, 4024ms total)
T389C 243:836 JLINK_IsHalted() -- CPU_ReadMem(2 bytes @ 0x20000000)  returns TRUE (0004ms, 4027ms total)
T389C 243:840 JLINK_ReadReg(R15 (PC))  returns 0x20000000 (0000ms, 4023ms total)
T389C 243:840 JLINK_ClrBPEx(BPHandle = 0x0000000D)  returns 0x00 (0000ms, 4023ms total)
T389C 243:840 JLINK_ReadReg(R0)  returns 0x00000000 (0000ms, 4023ms total)
T389C 243:841 JLINK_WriteMem(0x20000188, 0x0278 Bytes, ...) - Data: 01 98 C0 07 05 D0 03 98 40 06 02 D5 20 46 01 F0 ... -- CPU_WriteMem(632 bytes @ 0x20000188)  returns 0x278 (0005ms, 4028ms total)
T389C 243:846 JLINK_WriteMem(0x20000400, 0x0188 Bytes, ...) - Data: 32 46 00 E0 3A 46 0C 32 A0 6B FF F7 7B FB 21 68 ... -- CPU_WriteMem(392 bytes @ 0x20000400)  returns 0x188 (0003ms, 4031ms total)
T389C 243:849 JLINK_WriteReg(R0, 0x08002000)  returns 0x00 (0000ms, 4031ms total)
T389C 243:849 JLINK_WriteReg(R1, 0x00000400)  returns 0x00 (0000ms, 4031ms total)
T389C 243:849 JLINK_WriteReg(R2, 0x20000188)  returns 0x00 (0000ms, 4031ms total)
T389C 243:849 JLINK_WriteReg(R3, 0x00000000)  returns 0x00 (0000ms, 4031ms total)
T389C 243:849 JLINK_WriteReg(R4, 0x00000000)  returns 0x00 (0000ms, 4031ms total)
T389C 243:849 JLINK_WriteReg(R5, 0x00000000)  returns 0x00 (0000ms, 4031ms total)
T389C 243:849 JLINK_WriteReg(R6, 0x00000000)  returns 0x00 (0000ms, 4031ms total)
T389C 243:849 JLINK_WriteReg(R7, 0x00000000)  returns 0x00 (0000ms, 4031ms total)
T389C 243:849 JLINK_WriteReg(R8, 0x00000000)  returns 0x00 (0000ms, 4031ms total)
T389C 243:849 JLINK_WriteReg(R9, 0x20000184)  returns 0x00 (0000ms, 4031ms total)
T389C 243:849 JLINK_WriteReg(R10, 0x00000000)  returns 0x00 (0000ms, 4031ms total)
T389C 243:849 JLINK_WriteReg(R11, 0x00000000)  returns 0x00 (0000ms, 4031ms total)
T389C 243:849 JLINK_WriteReg(R12, 0x00000000)  returns 0x00 (0000ms, 4031ms total)
T389C 243:849 JLINK_WriteReg(R13 (SP), 0x20001000)  returns 0x00 (0000ms, 4031ms total)
T389C 243:849 JLINK_WriteReg(R14, 0x20000001)  returns 0x00 (0000ms, 4031ms total)
T389C 243:849 JLINK_WriteReg(R15 (PC), 0x20000112)  returns 0x00 (0000ms, 4031ms total)
T389C 243:849 JLINK_WriteReg(XPSR, 0x01000000)  returns 0x00 (0001ms, 4032ms total)
T389C 243:850 JLINK_WriteReg(MSP, 0x20001000)  returns 0x00 (0000ms, 4032ms total)
T389C 243:850 JLINK_WriteReg(PSP, 0x20001000)  returns 0x00 (0000ms, 4032ms total)
T389C 243:850 JLINK_WriteReg(CFBP, 0x00000000)  returns 0x00 (0000ms, 4032ms total)
T389C 243:850 JLINK_SetBPEx(Addr = 0x20000000, Type = 0xFFFFFFF2)  returns 0x0000000E (0000ms, 4032ms total)
T389C 243:850 JLINK_Go() -- CPU_ReadMem(4 bytes @ 0xE0001000) (0004ms, 4036ms total)
T389C 243:854 JLINK_IsHalted()  returns FALSE (0001ms, 4037ms total)
T389C 243:856 JLINK_IsHalted()  returns FALSE (0000ms, 4036ms total)
T389C 243:858 JLINK_IsHalted() -- CPU_ReadMem(2 bytes @ 0x20000000)  returns TRUE (0004ms, 4040ms total)
T389C 243:862 JLINK_ReadReg(R15 (PC))  returns 0x20000000 (0000ms, 4036ms total)
T389C 243:862 JLINK_ClrBPEx(BPHandle = 0x0000000E)  returns 0x00 (0000ms, 4036ms total)
T389C 243:862 JLINK_ReadReg(R0)  returns 0x00000000 (0000ms, 4036ms total)
T389C 243:863 JLINK_WriteMem(0x20000188, 0x0278 Bytes, ...) - Data: DB 69 23 EA 08 03 01 D1 08 46 00 E0 10 46 C3 61 ... -- CPU_WriteMem(632 bytes @ 0x20000188)  returns 0x278 (0004ms, 4040ms total)
T389C 243:867 JLINK_WriteMem(0x20000400, 0x0188 Bytes, ...) - Data: 00 F0 1F 02 01 21 91 40 40 09 80 00 00 F1 E0 20 ... -- CPU_WriteMem(392 bytes @ 0x20000400)  returns 0x188 (0003ms, 4043ms total)
T389C 243:870 JLINK_WriteReg(R0, 0x08002400)  returns 0x00 (0000ms, 4043ms total)
T389C 243:870 JLINK_WriteReg(R1, 0x00000400)  returns 0x00 (0000ms, 4043ms total)
T389C 243:870 JLINK_WriteReg(R2, 0x20000188)  returns 0x00 (0000ms, 4043ms total)
T389C 243:870 JLINK_WriteReg(R3, 0x00000000)  returns 0x00 (0000ms, 4043ms total)
T389C 243:870 JLINK_WriteReg(R4, 0x00000000)  returns 0x00 (0000ms, 4043ms total)
T389C 243:870 JLINK_WriteReg(R5, 0x00000000)  returns 0x00 (0000ms, 4043ms total)
T389C 243:870 JLINK_WriteReg(R6, 0x00000000)  returns 0x00 (0000ms, 4043ms total)
T389C 243:870 JLINK_WriteReg(R7, 0x00000000)  returns 0x00 (0000ms, 4043ms total)
T389C 243:870 JLINK_WriteReg(R8, 0x00000000)  returns 0x00 (0000ms, 4043ms total)
T389C 243:870 JLINK_WriteReg(R9, 0x20000184)  returns 0x00 (0000ms, 4043ms total)
T389C 243:870 JLINK_WriteReg(R10, 0x00000000)  returns 0x00 (0000ms, 4043ms total)
T389C 243:870 JLINK_WriteReg(R11, 0x00000000)  returns 0x00 (0000ms, 4043ms total)
T389C 243:870 JLINK_WriteReg(R12, 0x00000000)  returns 0x00 (0001ms, 4044ms total)
T389C 243:871 JLINK_WriteReg(R13 (SP), 0x20001000)  returns 0x00 (0000ms, 4044ms total)
T389C 243:871 JLINK_WriteReg(R14, 0x20000001)  returns 0x00 (0000ms, 4044ms total)
T389C 243:871 JLINK_WriteReg(R15 (PC), 0x20000112)  returns 0x00 (0000ms, 4044ms total)
T389C 243:871 JLINK_WriteReg(XPSR, 0x01000000)  returns 0x00 (0000ms, 4044ms total)
T389C 243:871 JLINK_WriteReg(MSP, 0x20001000)  returns 0x00 (0000ms, 4044ms total)
T389C 243:871 JLINK_WriteReg(PSP, 0x20001000)  returns 0x00 (0000ms, 4044ms total)
T389C 243:871 JLINK_WriteReg(CFBP, 0x00000000)  returns 0x00 (0000ms, 4044ms total)
T389C 243:871 JLINK_SetBPEx(Addr = 0x20000000, Type = 0xFFFFFFF2)  returns 0x0000000F (0000ms, 4044ms total)
T389C 243:871 JLINK_Go() -- CPU_ReadMem(4 bytes @ 0xE0001000) (0004ms, 4048ms total)
T389C 243:875 JLINK_IsHalted()  returns FALSE (0001ms, 4049ms total)
T389C 243:878 JLINK_IsHalted()  returns FALSE (0000ms, 4048ms total)
T389C 243:880 JLINK_IsHalted() -- CPU_ReadMem(2 bytes @ 0x20000000)  returns TRUE (0004ms, 4052ms total)
T389C 243:884 JLINK_ReadReg(R15 (PC))  returns 0x20000000 (0000ms, 4048ms total)
T389C 243:884 JLINK_ClrBPEx(BPHandle = 0x0000000F)  returns 0x00 (0000ms, 4048ms total)
T389C 243:884 JLINK_ReadReg(R0)  returns 0x00000000 (0000ms, 4048ms total)
T389C 243:885 JLINK_WriteMem(0x20000188, 0x0278 Bytes, ...) - Data: A0 69 00 B9 01 26 20 78 4F F0 00 0A 00 07 4F F0 ... -- CPU_WriteMem(632 bytes @ 0x20000188)  returns 0x278 (0004ms, 4052ms total)
